T39E0 000:000.480   SEGGER J-Link V8.12c Log File
T39E0 000:000.592   DLL Compiled: Jan 22 2025 12:55:59
T39E0 000:000.599   Logging started @ 2025-03-08 13:41
T39E0 000:000.606   Process: C:\Users\a8456\.eclipse\com.renesas.platform_1309835749\DebugComp\RA\e2-server-gdb.exe
T39E0 000:000.617 - 0.612ms 
T39E0 000:000.629 JLINK_GetDLLVersion()
T39E0 000:000.636 - 0.006ms returns 81203
T39E0 000:004.316 JLINK_OpenEx(...)
T39E0 000:011.445   Firmware: J-Link V9 compiled May  7 2021 16:26:12
T39E0 000:012.000   Firmware: J-Link V9 compiled May  7 2021 16:26:12
T39E0 000:012.143   Decompressing FW timestamp took 100 us
T39E0 000:017.524   Hardware: V9.60
T39E0 000:017.553   S/N: 69660718
T39E0 000:017.562   OEM: SEGGER
T39E0 000:017.570   Feature(s): RDI, GDB, FlashDL, FlashBP, JFlash
T39E0 000:017.978   Bootloader: (FW returned invalid version)
T39E0 000:018.648   TELNET listener socket opened on port 19021
T39E0 000:018.845   WEBSRV WEBSRV_Init(): Starting webserver thread(s)
T39E0 000:019.335   WEBSRV Webserver running on local port 19080
T39E0 000:019.546   Looking for J-Link GUI Server exe at: C:\Users\a8456\.eclipse\com.renesas.platform_1309835749\DebugComp\RA\ARM\Segger_v8.12.3\JLinkGUIServer.exe
T39E0 000:019.648   Looking for J-Link GUI Server exe at: C:\Program Files\SEGGER\JLink_V818\JLinkGUIServer.exe
T39E0 000:019.680   Forking J-Link GUI Server: C:\Program Files\SEGGER\JLink_V818\JLinkGUIServer.exe
T39E0 000:046.848   J-Link GUI Server info: "J-Link GUI server V8.18 "
T39E0 000:057.972 - 53.652ms returns "O.K."
T39E0 000:058.057 JLINK_TIF_Select(JLINKARM_TIF_SWD)
T39E0 000:058.540 - 0.482ms returns 0x00
T39E0 000:058.564 JLINK_ClrRESET()
T39E0 000:058.721 - 0.156ms 
T39E0 000:108.931 JLINK_SetSpeed(1500)
T39E0 000:109.091 - 0.175ms 
T39E0 000:109.108 JLINK_CORESIGHT_Configure(PerformTIFInit=0)
T39E0 000:109.603 - 0.497ms returns 0
T39E0 000:109.636 JLINK_CORESIGHT_ReadAPDPReg(DP reg 0x00)
T39E0 000:109.850   Value=0x6BA02477
T39E0 000:109.870 - 0.236ms returns 0
T39E0 000:109.880 JLINK_CORESIGHT_WriteAPDPReg(DP reg 0x00, 0x0000001F)
T39E0 000:110.076 - 0.196ms returns 0
T39E0 000:110.094 JLINK_CORESIGHT_ReadAPDPReg(DP reg 0x00)
T39E0 000:110.299   Value=0x6BA02477
T39E0 000:110.314 - 0.219ms returns 0
T39E0 000:110.323 JLINK_CORESIGHT_WriteAPDPReg(DP reg 0x02, 0x00000000)
T39E0 000:110.491 - 0.168ms returns 0
T39E0 000:110.523 JLINK_CORESIGHT_WriteAPDPReg(DP reg 0x01, 0x50000000)
T39E0 000:110.727 - 0.204ms returns 0
T39E0 000:110.749 JLINK_CORESIGHT_ReadAPDPReg(DP reg 0x01)
T39E0 000:110.905   Value=0xD0000040
T39E0 000:110.924 - 0.175ms returns 0
T39E0 000:110.941 JLINK_CORESIGHT_ReadAPDPReg(DP reg 0x01)
T39E0 000:111.137   Value=0xF0000040
T39E0 000:111.150 - 0.208ms returns 0
T39E0 000:111.158 JLINK_CORESIGHT_WriteAPDPReg(DP reg 0x00, 0x0000001F)
T39E0 000:111.409 - 0.251ms returns 0
T39E0 000:111.423 JLINK_CORESIGHT_ReadAPDPReg(DP reg 0x00)
T39E0 000:111.620   Value=0x6BA02477
T39E0 000:111.632 - 0.209ms returns 0
T39E0 000:111.640 JLINK_CORESIGHT_WriteAPDPReg(DP reg 0x01, 0x54000000)
T39E0 000:111.863 - 0.223ms returns 0
T39E0 000:111.882 JLINK_CORESIGHT_WriteAPDPReg(DP reg 0x01, 0x50000F00)
T39E0 000:112.107 - 0.225ms returns 0
T39E0 000:112.127 JLINK_CORESIGHT_WriteAPDPReg(DP reg 0x02, 0x01000000)
T39E0 000:112.371 - 0.244ms returns 0
T39E0 000:112.389 JLINK_CORESIGHT_WriteAPDPReg(AP reg 0x00, 0x80000002)
T39E0 000:112.626 - 0.236ms returns 0
T39E0 000:112.640 JLINK_CORESIGHT_WriteAPDPReg(AP reg 0x01, 0x80011100)
T39E0 000:112.861 - 0.221ms returns 0
T39E0 000:112.890 JLINK_CORESIGHT_WriteAPDPReg(AP reg 0x03, 0x000000A5)
T39E0 000:113.081 - 0.190ms returns 0
T39E0 000:113.103 JLINK_CORESIGHT_WriteAPDPReg(AP reg 0x00, 0x80000002)
T39E0 000:113.294 - 0.191ms returns 0
T39E0 000:113.309 JLINK_CORESIGHT_WriteAPDPReg(AP reg 0x01, 0x80011100)
T39E0 000:113.476 - 0.167ms returns 0
T39E0 000:113.486 JLINK_CORESIGHT_ReadAPDPReg(AP reg 0x03)
T39E0 000:113.698   Value=0x000000A5
T39E0 000:113.710 - 0.224ms returns 0
T39E0 000:113.719 JLINK_ClrTMS()
T39E0 000:113.760 - 0.040ms 
T39E0 000:118.875 JLINK_SetTCK()
T39E0 000:118.995 - 0.119ms returns 0
T39E0 000:124.247 JLINK_SetRESET()
T39E0 000:124.388 - 0.141ms 
T39E0 000:324.677 JLINK_CORESIGHT_WriteAPDPReg(AP reg 0x00, 0x80000002)
T39E0 000:324.923 - 0.245ms returns 0
T39E0 000:324.941 JLINK_CORESIGHT_WriteAPDPReg(AP reg 0x01, 0x80011100)
T39E0 000:325.115 - 0.174ms returns 0
T39E0 000:325.123 JLINK_CORESIGHT_ReadAPDPReg(AP reg 0x03)
T39E0 000:325.411   Value=0x000000A5
T39E0 000:325.423 - 0.299ms returns 0
T39E0 000:325.434 JLINK_ClrRESET()
T39E0 000:325.603 - 0.168ms 
T39E0 000:376.095 JLINK_SetSpeed(1500)
T39E0 000:376.257 - 0.161ms 
T39E0 000:376.332 JLINK_CORESIGHT_Configure(PerformTIFInit=0)
T39E0 000:376.741 - 0.410ms returns 0
T39E0 000:376.759 JLINK_CORESIGHT_ReadAPDPReg(DP reg 0x00)
T39E0 000:376.979   Value=0x6BA02477
T39E0 000:376.996 - 0.236ms returns 0
T39E0 000:377.005 JLINK_CORESIGHT_WriteAPDPReg(DP reg 0x00, 0x0000001F)
T39E0 000:377.243 - 0.239ms returns 0
T39E0 000:377.255 JLINK_CORESIGHT_ReadAPDPReg(DP reg 0x00)
T39E0 000:377.450   Value=0x6BA02477
T39E0 000:377.461 - 0.206ms returns 0
T39E0 000:377.469 JLINK_CORESIGHT_WriteAPDPReg(DP reg 0x02, 0x00000000)
T39E0 000:377.652 - 0.183ms returns 0
T39E0 000:377.660 JLINK_CORESIGHT_WriteAPDPReg(DP reg 0x01, 0x50000000)
T39E0 000:377.829 - 0.169ms returns 0
T39E0 000:377.838 JLINK_CORESIGHT_ReadAPDPReg(DP reg 0x01)
T39E0 000:378.003   Value=0xF0000040
T39E0 000:378.012 - 0.174ms returns 0
T39E0 000:378.019 JLINK_CORESIGHT_WriteAPDPReg(DP reg 0x00, 0x0000001F)
T39E0 000:378.243 - 0.223ms returns 0
T39E0 000:378.259 JLINK_CORESIGHT_ReadAPDPReg(DP reg 0x00)
T39E0 000:378.416   Value=0x6BA02477
T39E0 000:378.425 - 0.166ms returns 0
T39E0 000:378.432 JLINK_CORESIGHT_WriteAPDPReg(DP reg 0x01, 0x54000000)
T39E0 000:378.597 - 0.164ms returns 0
T39E0 000:378.605 JLINK_CORESIGHT_WriteAPDPReg(DP reg 0x01, 0x50000F00)
T39E0 000:378.767 - 0.162ms returns 0
T39E0 000:378.778 JLINK_CORESIGHT_WriteAPDPReg(DP reg 0x02, 0x01000000)
T39E0 000:378.949 - 0.171ms returns 0
T39E0 000:378.956 JLINK_CORESIGHT_WriteAPDPReg(AP reg 0x00, 0x80000002)
T39E0 000:379.120 - 0.164ms returns 0
T39E0 000:379.128 JLINK_CORESIGHT_WriteAPDPReg(AP reg 0x01, 0x80011100)
T39E0 000:379.389 - 0.261ms returns 0
T39E0 000:379.398 JLINK_CORESIGHT_WriteAPDPReg(AP reg 0x03, 0x000000A5)
T39E0 000:379.561 - 0.162ms returns 0
T39E0 000:379.570 JLINK_CORESIGHT_WriteAPDPReg(AP reg 0x00, 0x80000002)
T39E0 000:379.747 - 0.177ms returns 0
T39E0 000:379.755 JLINK_CORESIGHT_WriteAPDPReg(AP reg 0x01, 0x80011100)
T39E0 000:379.921 - 0.165ms returns 0
T39E0 000:379.928 JLINK_CORESIGHT_ReadAPDPReg(AP reg 0x03)
T39E0 000:380.143   Value=0x000000A5
T39E0 000:380.152 - 0.224ms returns 0
T39E0 000:380.160 JLINK_ClrTMS()
T39E0 000:380.206 - 0.045ms 
T39E0 000:387.518 JLINK_SetTCK()
T39E0 000:387.673 - 0.154ms returns 0
T39E0 000:393.108 JLINK_SetRESET()
T39E0 000:393.242 - 0.133ms 
T39E0 000:593.455 JLINK_CORESIGHT_WriteAPDPReg(AP reg 0x00, 0x80000002)
T39E0 000:593.667 - 0.212ms returns 0
T39E0 000:593.687 JLINK_CORESIGHT_WriteAPDPReg(AP reg 0x01, 0x80011100)
T39E0 000:593.869 - 0.182ms returns 0
T39E0 000:593.877 JLINK_CORESIGHT_ReadAPDPReg(AP reg 0x03)
T39E0 000:594.095   Value=0x000000A5
T39E0 000:594.104 - 0.227ms returns 0
T39E0 000:594.209 JLINK_CORESIGHT_ReadAPDPReg(DP reg 0x01)
T39E0 000:594.373   Value=0xF0000F40
T39E0 000:594.381 - 0.172ms returns 0
T39E0 000:594.388 JLINK_CORESIGHT_WriteAPDPReg(DP reg 0x01, 0xA0000F40)
T39E0 000:594.550 - 0.161ms returns 0
T39E0 000:594.560 JLINK_CORESIGHT_ReadAPDPReg(DP reg 0x01)
T39E0 000:594.725   Value=0x00000F40
T39E0 000:594.742 - 0.182ms returns 0
T39E0 000:594.751 JLINK_ClrRESET()
T39E0 000:594.903 - 0.151ms 
T39E0 000:700.125 JLINK_Close()
T39E0 000:711.969 - 11.842ms
T39E0 000:712.000   
T39E0 000:712.006   Closed
